Sample in Buffer,Sample in Window,TRIGGER,i_system_wrapper/system_i/ZynqBF_2t_ip_0/U0/u_ZynqBF_2t_ip_dut_inst/u_ZynqBF_2t_ip_src_ZynqBF_2tx_fpga/u_channel_estimator/u_correlators/ch1_corr_probe[31:0],i_system_wrapper/system_i/ZynqBF_2t_ip_0/U0/u_ZynqBF_2t_ip_dut_inst/u_ZynqBF_2t_ip_src_ZynqBF_2tx_fpga/u_channel_estimator/u_correlators/ch2_corr_probe[31:0],i_system_wrapper/system_i/ZynqBF_2t_ip_0/U0/u_ZynqBF_2t_ip_dut_inst/u_ZynqBF_2t_ip_src_ZynqBF_2tx_fpga/u_channel_estimator/u_correlators/ch3_corr_probe[31:0],i_system_wrapper/system_i/ZynqBF_2t_ip_0/U0/u_ZynqBF_2t_ip_dut_inst/u_ZynqBF_2t_ip_src_ZynqBF_2tx_fpga/u_channel_estimator/u_correlators/ch4_corr_probe[31:0],i_system_wrapper/system_i/ZynqBF_2t_ip_0/U0/u_ZynqBF_2t_ip_dut_inst/u_ZynqBF_2t_ip_src_ZynqBF_2tx_fpga/u_channel_estimator/u_correlators/ch5_corr_probe[31:0]
0,0,0,11317,65879,127004,14850,5461
1,1,0,11317,65879,127004,14850,5461
2,2,0,11317,65879,127004,14850,5461
3,3,0,11317,65879,127004,14850,5461
4,4,0,11317,65879,127004,14850,5461
5,5,0,11317,65879,127004,14850,5461
6,6,0,11317,65879,127004,14850,5461
7,7,0,11317,65879,127004,14850,5461
8,8,0,11317,65879,127004,14850,5461
9,9,0,11317,65879,127004,14850,5461
10,10,0,11317,65879,127004,14850,5461
11,11,0,11317,65879,127004,14850,5461
12,12,0,11317,65879,127004,14850,5461
13,13,0,11317,65879,127004,14850,5461
14,14,0,6571,63489,111071,16127,12876
15,15,0,6571,63489,111071,16127,12876
16,16,0,6571,63489,111071,16127,12876
17,17,0,6571,63489,111071,16127,12876
18,18,0,6571,63489,111071,16127,12876
19,19,0,6571,63489,111071,16127,12876
20,20,0,6571,63489,111071,16127,12876
21,21,0,6571,63489,111071,16127,12876
22,22,0,6571,63489,111071,16127,12876
23,23,0,6571,63489,111071,16127,12876
24,24,0,6571,63489,111071,16127,12876
25,25,0,6571,63489,111071,16127,12876
26,26,0,6571,63489,111071,16127,12876
27,27,0,6571,63489,111071,16127,12876
28,28,0,6571,63489,111071,16127,12876
29,29,0,6571,63489,111071,16127,12876
30,30,0,6571,63489,111071,16127,12876
31,31,0,6571,63489,111071,16127,12876
32,32,0,6571,63489,111071,16127,12876
33,33,0,6571,63489,111071,16127,12876
34,34,0,6571,63489,111071,16127,12876
35,35,0,6571,63489,111071,16127,12876
36,36,0,6571,63489,111071,16127,12876
37,37,0,6571,63489,111071,16127,12876
38,38,0,6571,63489,111071,16127,12876
39,39,0,6571,63489,111071,16127,12876
40,40,0,6571,63489,111071,16127,12876
41,41,0,6571,63489,111071,16127,12876
42,42,0,6571,63489,111071,16127,12876
43,43,0,6571,63489,111071,16127,12876
44,44,0,6571,63489,111071,16127,12876
45,45,0,6571,63489,111071,16127,12876
46,46,0,6571,63489,111071,16127,12876
47,47,0,6571,63489,111071,16127,12876
48,48,0,6571,63489,111071,16127,12876
49,49,0,6571,63489,111071,16127,12876
50,50,0,6571,63489,111071,16127,12876
51,51,0,6571,63489,111071,16127,12876
52,52,0,6571,63489,111071,16127,12876
53,53,0,6571,63489,111071,16127,12876
54,54,0,6571,63489,111071,16127,12876
55,55,0,6571,63489,111071,16127,12876
56,56,0,6571,63489,111071,16127,12876
57,57,0,6571,63489,111071,16127,12876
58,58,0,6571,63489,111071,16127,12876
59,59,0,6571,63489,111071,16127,12876
60,60,0,6571,63489,111071,16127,12876
61,61,0,6571,63489,111071,16127,12876
62,62,0,6571,63489,111071,16127,12876
63,63,0,6571,63489,111071,16127,12876
64,64,0,6571,63489,111071,16127,12876
65,65,0,6571,63489,111071,16127,12876
66,66,0,6571,63489,111071,16127,12876
67,67,0,6571,63489,111071,16127,12876
68,68,0,6571,63489,111071,16127,12876
69,69,0,6571,63489,111071,16127,12876
70,70,0,6571,63489,111071,16127,12876
71,71,0,6571,63489,111071,16127,12876
72,72,0,6571,63489,111071,16127,12876
73,73,0,6571,63489,111071,16127,12876
74,74,0,6571,63489,111071,16127,12876
75,75,0,6571,63489,111071,16127,12876
76,76,0,6571,63489,111071,16127,12876
77,77,0,6571,63489,111071,16127,12876
78,78,0,6571,63489,111071,16127,12876
79,79,0,6571,63489,111071,16127,12876
80,80,0,6571,63489,111071,16127,12876
81,81,0,6571,63489,111071,16127,12876
82,82,0,6571,63489,111071,16127,12876
83,83,0,6571,63489,111071,16127,12876
84,84,0,6571,63489,111071,16127,12876
85,85,0,6571,63489,111071,16127,12876
86,86,0,6571,63489,111071,16127,12876
87,87,0,6571,63489,111071,16127,12876
88,88,0,6571,63489,111071,16127,12876
89,89,0,6571,63489,111071,16127,12876
90,90,0,6571,63489,111071,16127,12876
91,91,0,6571,63489,111071,16127,12876
92,92,0,6571,63489,111071,16127,12876
93,93,0,6571,63489,111071,16127,12876
94,94,0,6571,63489,111071,16127,12876
95,95,0,6571,63489,111071,16127,12876
96,96,0,6571,63489,111071,16127,12876
97,97,0,6571,63489,111071,16127,12876
98,98,0,6571,63489,111071,16127,12876
99,99,0,6571,63489,111071,16127,12876
100,100,0,6571,63489,111071,16127,12876
101,101,0,6571,63489,111071,16127,12876
102,102,0,6571,63489,111071,16127,12876
103,103,0,6571,63489,111071,16127,12876
104,104,0,6571,63489,111071,16127,12876
105,105,0,6571,63489,111071,16127,12876
106,106,0,6571,63489,111071,16127,12876
107,107,0,6571,63489,111071,16127,12876
108,108,0,6571,63489,111071,16127,12876
109,109,0,6571,63489,111071,16127,12876
110,110,0,6571,63489,111071,16127,12876
111,111,0,6571,63489,111071,16127,12876
112,112,0,6571,63489,111071,16127,12876
113,113,0,6571,63489,111071,16127,12876
114,114,0,6571,63489,111071,16127,12876
115,115,0,6571,63489,111071,16127,12876
116,116,0,6571,63489,111071,16127,12876
117,117,0,6571,63489,111071,16127,12876
118,118,0,6571,63489,111071,16127,12876
119,119,0,6571,63489,111071,16127,12876
120,120,0,6571,63489,111071,16127,12876
121,121,0,6571,63489,111071,16127,12876
122,122,0,6571,63489,111071,16127,12876
123,123,0,6571,63489,111071,16127,12876
124,124,0,6571,63489,111071,16127,12876
125,125,0,6571,63489,111071,16127,12876
126,126,0,6571,63489,111071,16127,12876
127,127,0,6571,63489,111071,16127,12876
128,128,0,6571,63489,111071,16127,12876
129,129,0,6571,63489,111071,16127,12876
130,130,0,6571,63489,111071,16127,12876
131,131,0,6571,63489,111071,16127,12876
132,132,0,6571,63489,111071,16127,12876
133,133,0,6571,63489,111071,16127,12876
134,134,0,6571,63489,111071,16127,12876
135,135,0,6571,63489,111071,16127,12876
136,136,0,6571,63489,111071,16127,12876
137,137,0,6571,63489,111071,16127,12876
138,138,0,6571,63489,111071,16127,12876
139,139,0,6571,63489,111071,16127,12876
140,140,0,6571,63489,111071,16127,12876
141,141,0,6571,63489,111071,16127,12876
142,142,0,6571,63489,111071,16127,12876
143,143,0,6571,63489,111071,16127,12876
144,144,0,6571,63489,111071,16127,12876
145,145,0,6571,63489,111071,16127,12876
146,146,0,6571,63489,111071,16127,12876
147,147,0,6571,63489,111071,16127,12876
148,148,0,6571,63489,111071,16127,12876
149,149,0,6571,63489,111071,16127,12876
150,150,0,6571,63489,111071,16127,12876
151,151,0,6571,63489,111071,16127,12876
152,152,0,6571,63489,111071,16127,12876
153,153,0,6571,63489,111071,16127,12876
154,154,0,6571,63489,111071,16127,12876
155,155,0,6571,63489,111071,16127,12876
156,156,0,6571,63489,111071,16127,12876
157,157,0,6571,63489,111071,16127,12876
158,158,0,6571,63489,111071,16127,12876
159,159,0,6571,63489,111071,16127,12876
160,160,0,6571,63489,111071,16127,12876
161,161,0,6571,63489,111071,16127,12876
162,162,0,6571,63489,111071,16127,12876
163,163,0,6571,63489,111071,16127,12876
164,164,0,6571,63489,111071,16127,12876
165,165,0,6571,63489,111071,16127,12876
166,166,0,6571,63489,111071,16127,12876
167,167,0,6571,63489,111071,16127,12876
168,168,0,6571,63489,111071,16127,12876
169,169,0,6571,63489,111071,16127,12876
170,170,0,6571,63489,111071,16127,12876
171,171,0,6571,63489,111071,16127,12876
172,172,0,6571,63489,111071,16127,12876
173,173,0,6571,63489,111071,16127,12876
174,174,0,6571,63489,111071,16127,12876
175,175,0,6571,63489,111071,16127,12876
176,176,0,6571,63489,111071,16127,12876
177,177,0,6571,63489,111071,16127,12876
178,178,0,6571,63489,111071,16127,12876
179,179,0,6571,63489,111071,16127,12876
180,180,0,6571,63489,111071,16127,12876
181,181,0,6571,63489,111071,16127,12876
182,182,0,6571,63489,111071,16127,12876
183,183,0,6571,63489,111071,16127,12876
184,184,0,6571,63489,111071,16127,12876
185,185,0,6571,63489,111071,16127,12876
186,186,0,6571,63489,111071,16127,12876
187,187,0,6571,63489,111071,16127,12876
188,188,0,6571,63489,111071,16127,12876
189,189,0,6571,63489,111071,16127,12876
190,190,0,6571,63489,111071,16127,12876
191,191,0,6571,63489,111071,16127,12876
192,192,0,6571,63489,111071,16127,12876
193,193,0,6571,63489,111071,16127,12876
194,194,0,6571,63489,111071,16127,12876
195,195,0,6571,63489,111071,16127,12876
196,196,0,6571,63489,111071,16127,12876
197,197,0,6571,63489,111071,16127,12876
198,198,0,6571,63489,111071,16127,12876
199,199,0,6571,63489,111071,16127,12876
200,200,0,149,51581,93481,13631,23537
201,201,0,149,51581,93481,13631,23537
202,202,0,149,51581,93481,13631,23537
203,203,0,149,51581,93481,13631,23537
204,204,0,149,51581,93481,13631,23537
205,205,0,149,51581,93481,13631,23537
206,206,0,149,51581,93481,13631,23537
207,207,0,149,51581,93481,13631,23537
208,208,0,149,51581,93481,13631,23537
209,209,0,149,51581,93481,13631,23537
210,210,0,149,51581,93481,13631,23537
211,211,0,149,51581,93481,13631,23537
212,212,0,149,51581,93481,13631,23537
213,213,0,149,51581,93481,13631,23537
214,214,0,149,51581,93481,13631,23537
215,215,0,149,51581,93481,13631,23537
216,216,0,149,51581,93481,13631,23537
217,217,0,149,51581,93481,13631,23537
218,218,0,149,51581,93481,13631,23537
219,219,0,149,51581,93481,13631,23537
220,220,0,149,51581,93481,13631,23537
221,221,0,149,51581,93481,13631,23537
222,222,0,149,51581,93481,13631,23537
223,223,0,149,51581,93481,13631,23537
224,224,0,149,51581,93481,13631,23537
225,225,0,149,51581,93481,13631,23537
226,226,0,149,51581,93481,13631,23537
227,227,0,149,51581,93481,13631,23537
228,228,0,149,51581,93481,13631,23537
229,229,0,149,51581,93481,13631,23537
230,230,0,149,51581,93481,13631,23537
231,231,0,149,51581,93481,13631,23537
232,232,0,149,51581,93481,13631,23537
233,233,0,149,51581,93481,13631,23537
234,234,0,149,51581,93481,13631,23537
235,235,0,149,51581,93481,13631,23537
236,236,0,149,51581,93481,13631,23537
237,237,0,149,51581,93481,13631,23537
238,238,0,149,51581,93481,13631,23537
239,239,0,149,51581,93481,13631,23537
240,240,0,149,51581,93481,13631,23537
241,241,0,149,51581,93481,13631,23537
242,242,0,149,51581,93481,13631,23537
243,243,0,149,51581,93481,13631,23537
244,244,0,149,51581,93481,13631,23537
245,245,0,149,51581,93481,13631,23537
246,246,0,149,51581,93481,13631,23537
247,247,0,149,51581,93481,13631,23537
248,248,0,149,51581,93481,13631,23537
249,249,0,149,51581,93481,13631,23537
250,250,0,149,51581,93481,13631,23537
251,251,0,149,51581,93481,13631,23537
252,252,0,149,51581,93481,13631,23537
253,253,0,149,51581,93481,13631,23537
254,254,0,149,51581,93481,13631,23537
255,255,0,149,51581,93481,13631,23537
256,256,0,149,51581,93481,13631,23537
257,257,0,149,51581,93481,13631,23537
258,258,0,149,51581,93481,13631,23537
259,259,0,149,51581,93481,13631,23537
260,260,0,149,51581,93481,13631,23537
261,261,0,149,51581,93481,13631,23537
262,262,0,149,51581,93481,13631,23537
263,263,0,149,51581,93481,13631,23537
264,264,0,149,51581,93481,13631,23537
265,265,0,149,51581,93481,13631,23537
266,266,0,149,51581,93481,13631,23537
267,267,0,149,51581,93481,13631,23537
268,268,0,149,51581,93481,13631,23537
269,269,0,149,51581,93481,13631,23537
270,270,0,149,51581,93481,13631,23537
271,271,0,149,51581,93481,13631,23537
272,272,0,149,51581,93481,13631,23537
273,273,0,149,51581,93481,13631,23537
274,274,0,149,51581,93481,13631,23537
275,275,0,149,51581,93481,13631,23537
276,276,0,149,51581,93481,13631,23537
277,277,0,149,51581,93481,13631,23537
278,278,0,149,51581,93481,13631,23537
279,279,0,149,51581,93481,13631,23537
280,280,0,149,51581,93481,13631,23537
281,281,0,149,51581,93481,13631,23537
282,282,0,149,51581,93481,13631,23537
283,283,0,149,51581,93481,13631,23537
284,284,0,149,51581,93481,13631,23537
285,285,0,149,51581,93481,13631,23537
286,286,0,149,51581,93481,13631,23537
287,287,0,149,51581,93481,13631,23537
288,288,0,149,51581,93481,13631,23537
289,289,0,149,51581,93481,13631,23537
290,290,0,149,51581,93481,13631,23537
291,291,0,149,51581,93481,13631,23537
292,292,0,149,51581,93481,13631,23537
293,293,0,149,51581,93481,13631,23537
294,294,0,149,51581,93481,13631,23537
295,295,0,149,51581,93481,13631,23537
296,296,0,149,51581,93481,13631,23537
297,297,0,149,51581,93481,13631,23537
298,298,0,149,51581,93481,13631,23537
299,299,0,149,51581,93481,13631,23537
300,300,0,149,51581,93481,13631,23537
301,301,0,149,51581,93481,13631,23537
302,302,0,149,51581,93481,13631,23537
303,303,0,149,51581,93481,13631,23537
304,304,0,149,51581,93481,13631,23537
305,305,0,149,51581,93481,13631,23537
306,306,0,149,51581,93481,13631,23537
307,307,0,149,51581,93481,13631,23537
308,308,0,149,51581,93481,13631,23537
309,309,0,149,51581,93481,13631,23537
310,310,0,149,51581,93481,13631,23537
311,311,0,149,51581,93481,13631,23537
312,312,0,149,51581,93481,13631,23537
313,313,0,149,51581,93481,13631,23537
314,314,0,149,51581,93481,13631,23537
315,315,0,149,51581,93481,13631,23537
316,316,0,149,51581,93481,13631,23537
317,317,0,149,51581,93481,13631,23537
318,318,0,149,51581,93481,13631,23537
319,319,0,149,51581,93481,13631,23537
320,320,0,149,51581,93481,13631,23537
321,321,0,149,51581,93481,13631,23537
322,322,0,149,51581,93481,13631,23537
323,323,0,149,51581,93481,13631,23537
324,324,0,149,51581,93481,13631,23537
325,325,0,149,51581,93481,13631,23537
326,326,0,149,51581,93481,13631,23537
327,327,0,149,51581,93481,13631,23537
328,328,0,149,51581,93481,13631,23537
329,329,0,149,51581,93481,13631,23537
330,330,0,149,51581,93481,13631,23537
331,331,0,149,51581,93481,13631,23537
332,332,0,149,51581,93481,13631,23537
333,333,0,149,51581,93481,13631,23537
334,334,0,149,51581,93481,13631,23537
335,335,0,149,51581,93481,13631,23537
336,336,0,149,51581,93481,13631,23537
337,337,0,149,51581,93481,13631,23537
338,338,0,149,51581,93481,13631,23537
339,339,0,149,51581,93481,13631,23537
340,340,0,149,51581,93481,13631,23537
341,341,0,149,51581,93481,13631,23537
342,342,0,149,51581,93481,13631,23537
343,343,0,149,51581,93481,13631,23537
344,344,0,149,51581,93481,13631,23537
345,345,0,149,51581,93481,13631,23537
346,346,0,149,51581,93481,13631,23537
347,347,0,149,51581,93481,13631,23537
348,348,0,149,51581,93481,13631,23537
349,349,0,149,51581,93481,13631,23537
350,350,0,149,51581,93481,13631,23537
351,351,0,149,51581,93481,13631,23537
352,352,0,149,51581,93481,13631,23537
353,353,0,149,51581,93481,13631,23537
354,354,0,149,51581,93481,13631,23537
355,355,0,149,51581,93481,13631,23537
356,356,0,149,51581,93481,13631,23537
357,357,0,149,51581,93481,13631,23537
358,358,0,149,51581,93481,13631,23537
359,359,0,149,51581,93481,13631,23537
360,360,0,149,51581,93481,13631,23537
361,361,0,149,51581,93481,13631,23537
362,362,0,149,51581,93481,13631,23537
363,363,0,149,51581,93481,13631,23537
364,364,0,149,51581,93481,13631,23537
365,365,0,149,51581,93481,13631,23537
366,366,0,149,51581,93481,13631,23537
367,367,0,149,51581,93481,13631,23537
368,368,0,149,51581,93481,13631,23537
369,369,0,149,51581,93481,13631,23537
370,370,0,149,51581,93481,13631,23537
371,371,0,149,51581,93481,13631,23537
372,372,0,149,51581,93481,13631,23537
373,373,0,149,51581,93481,13631,23537
374,374,0,149,51581,93481,13631,23537
375,375,0,149,51581,93481,13631,23537
376,376,0,149,51581,93481,13631,23537
377,377,0,149,51581,93481,13631,23537
378,378,0,149,51581,93481,13631,23537
379,379,0,149,51581,93481,13631,23537
380,380,0,149,51581,93481,13631,23537
381,381,0,149,51581,93481,13631,23537
382,382,0,149,51581,93481,13631,23537
383,383,0,149,51581,93481,13631,23537
384,384,0,149,51581,93481,13631,23537
385,385,0,149,51581,93481,13631,23537
386,386,0,7500,32316,75538,8460,36452
387,387,0,7500,32316,75538,8460,36452
388,388,0,7500,32316,75538,8460,36452
389,389,0,7500,32316,75538,8460,36452
390,390,0,7500,32316,75538,8460,36452
391,391,0,7500,32316,75538,8460,36452
392,392,0,7500,32316,75538,8460,36452
393,393,0,7500,32316,75538,8460,36452
394,394,0,7500,32316,75538,8460,36452
395,395,0,7500,32316,75538,8460,36452
396,396,0,7500,32316,75538,8460,36452
397,397,0,7500,32316,75538,8460,36452
398,398,0,7500,32316,75538,8460,36452
399,399,0,7500,32316,75538,8460,36452
400,400,0,7500,32316,75538,8460,36452
401,401,0,7500,32316,75538,8460,36452
402,402,0,7500,32316,75538,8460,36452
403,403,0,7500,32316,75538,8460,36452
404,404,0,7500,32316,75538,8460,36452
405,405,0,7500,32316,75538,8460,36452
406,406,0,7500,32316,75538,8460,36452
407,407,0,7500,32316,75538,8460,36452
408,408,0,7500,32316,75538,8460,36452
409,409,0,7500,32316,75538,8460,36452
410,410,0,7500,32316,75538,8460,36452
411,411,0,7500,32316,75538,8460,36452
412,412,0,7500,32316,75538,8460,36452
413,413,0,7500,32316,75538,8460,36452
414,414,0,7500,32316,75538,8460,36452
415,415,0,7500,32316,75538,8460,36452
416,416,0,7500,32316,75538,8460,36452
417,417,0,7500,32316,75538,8460,36452
418,418,0,7500,32316,75538,8460,36452
419,419,0,7500,32316,75538,8460,36452
420,420,0,7500,32316,75538,8460,36452
421,421,0,7500,32316,75538,8460,36452
422,422,0,7500,32316,75538,8460,36452
423,423,0,7500,32316,75538,8460,36452
424,424,0,7500,32316,75538,8460,36452
425,425,0,7500,32316,75538,8460,36452
426,426,0,7500,32316,75538,8460,36452
427,427,0,7500,32316,75538,8460,36452
428,428,0,7500,32316,75538,8460,36452
429,429,0,7500,32316,75538,8460,36452
430,430,0,7500,32316,75538,8460,36452
431,431,0,7500,32316,75538,8460,36452
432,432,0,7500,32316,75538,8460,36452
433,433,0,7500,32316,75538,8460,36452
434,434,0,7500,32316,75538,8460,36452
435,435,0,7500,32316,75538,8460,36452
436,436,0,7500,32316,75538,8460,36452
437,437,0,7500,32316,75538,8460,36452
438,438,0,7500,32316,75538,8460,36452
439,439,0,7500,32316,75538,8460,36452
440,440,0,7500,32316,75538,8460,36452
441,441,0,7500,32316,75538,8460,36452
442,442,0,7500,32316,75538,8460,36452
443,443,0,7500,32316,75538,8460,36452
444,444,0,7500,32316,75538,8460,36452
445,445,0,7500,32316,75538,8460,36452
446,446,0,7500,32316,75538,8460,36452
447,447,0,7500,32316,75538,8460,36452
448,448,0,7500,32316,75538,8460,36452
449,449,0,7500,32316,75538,8460,36452
450,450,0,7500,32316,75538,8460,36452
451,451,0,7500,32316,75538,8460,36452
452,452,0,7500,32316,75538,8460,36452
453,453,0,7500,32316,75538,8460,36452
454,454,0,7500,32316,75538,8460,36452
455,455,0,7500,32316,75538,8460,36452
456,456,0,7500,32316,75538,8460,36452
457,457,0,7500,32316,75538,8460,36452
458,458,0,7500,32316,75538,8460,36452
459,459,0,7500,32316,75538,8460,36452
460,460,0,7500,32316,75538,8460,36452
461,461,0,7500,32316,75538,8460,36452
462,462,0,7500,32316,75538,8460,36452
463,463,0,7500,32316,75538,8460,36452
464,464,0,7500,32316,75538,8460,36452
465,465,0,7500,32316,75538,8460,36452
466,466,0,7500,32316,75538,8460,36452
467,467,0,7500,32316,75538,8460,36452
468,468,0,7500,32316,75538,8460,36452
469,469,0,7500,32316,75538,8460,36452
470,470,0,7500,32316,75538,8460,36452
471,471,0,7500,32316,75538,8460,36452
472,472,0,7500,32316,75538,8460,36452
473,473,0,7500,32316,75538,8460,36452
474,474,0,7500,32316,75538,8460,36452
475,475,0,7500,32316,75538,8460,36452
476,476,0,7500,32316,75538,8460,36452
477,477,0,7500,32316,75538,8460,36452
478,478,0,7500,32316,75538,8460,36452
479,479,0,7500,32316,75538,8460,36452
480,480,0,7500,32316,75538,8460,36452
481,481,0,7500,32316,75538,8460,36452
482,482,0,7500,32316,75538,8460,36452
483,483,0,7500,32316,75538,8460,36452
484,484,0,7500,32316,75538,8460,36452
485,485,0,7500,32316,75538,8460,36452
486,486,0,7500,32316,75538,8460,36452
487,487,0,7500,32316,75538,8460,36452
488,488,0,7500,32316,75538,8460,36452
489,489,0,7500,32316,75538,8460,36452
490,490,0,7500,32316,75538,8460,36452
491,491,0,7500,32316,75538,8460,36452
492,492,0,7500,32316,75538,8460,36452
493,493,0,7500,32316,75538,8460,36452
494,494,0,7500,32316,75538,8460,36452
495,495,0,7500,32316,75538,8460,36452
496,496,0,7500,32316,75538,8460,36452
497,497,0,7500,32316,75538,8460,36452
498,498,0,7500,32316,75538,8460,36452
